 ****** HSPICE -- N-2017.12-SP2 linux64 (May 24 2018) ******                    
  Copyright (c) 1986 - 2026 by Synopsys, Inc. All Rights Reserved.              
  This software and the associated documentation are proprietary
  to Synopsys, Inc. This software may only be used in accordance
  with the terms and conditions of a written license agreement with
  Synopsys, Inc. All other use, reproduction, or distribution of
  this software is strictly prohibited.
  Input File: CSA.sp                                                            
  Command line options: /home/IC/Synopsys/hspice/N-2017.12-SP2/hspice/linux64/hspice CSA.sp -o CSA.lis
 lic:  
 lic: FLEXlm: SDK_11.6.9.3 
 lic: USER:   IC                   HOSTNAME: IC 
 lic: HOSTID: 000c29935feb         PID:      33659 
 lic: Using FLEXlm license file: 
 lic: 27000@IC 
 lic: Checkout 1 hspice 
 lic: License/Maintenance for hspice will expire on 30-dec-2030/2019.2019 
 lic: 1(in_use)/99(total) FLOATING license(s) on SERVER 27000@IC 
 lic:   
 

  
      
 *****************************************************************
 ******  option summary
 ******
 runlvl  = 6         bypass  = 2.0000    




 ****     small-signal transfer characteristics

        vin        input resistance at vin       output resistance at v(out)      v(out)/vin      

       0.                1.000e+20                      50.0000k                   -7.2728u
      10.0000m           1.000e+20                      50.0000k                  -10.4929u
      20.0000m           1.000e+20                      50.0000k                  -15.1292u
      30.0000m           1.000e+20                      50.0000k                  -21.7975u
      40.0000m           1.000e+20                      50.0000k                  -31.3768u
      50.0000m           1.000e+20                      50.0000k                  -45.1172u
      60.0000m           1.000e+20                      50.0000k                  -64.7923u
      70.0000m           1.000e+20                      50.0000k                  -92.9068u
      80.0000m           1.000e+20                      49.9999k                 -132.9828u
      90.0000m           1.000e+20                      49.9999k                 -189.9453u
     100.0000m           1.000e+20                      49.9999k                 -270.6374u
     110.0000m           1.000e+20                      49.9999k                 -384.4970u
     120.0000m           1.000e+20                      49.9998k                 -544.4295u
     130.0000m           1.000e+20                      49.9997k                 -767.9100u
     140.0000m           1.000e+20                      49.9996k                   -1.0783m
     150.0000m           1.000e+20                      49.9995k                   -1.5067m
     160.0000m           1.000e+20                      49.9993k                   -2.0933m
     170.0000m           1.000e+20                      49.9990k                   -2.8904m
     180.0000m           1.000e+20                      49.9986k                   -3.9637m
     190.0000m           1.000e+20                      49.9981k                   -5.3960m
     200.0000m           1.000e+20                      49.9974k                   -7.2894m
     210.0000m           1.000e+20                      49.9965k                   -9.7686m
     220.0000m           1.000e+20                      49.9953k                  -12.9856m
     230.0000m           1.000e+20                      49.9938k                  -17.1238m
     240.0000m           1.000e+20                      49.9919k                  -22.4053m
     250.0000m           1.000e+20                      49.9894k                  -29.0983m
     260.0000m           1.000e+20                      49.9862k                  -37.5258m
     270.0000m           1.000e+20                      49.9822k                  -48.0741m
     280.0000m           1.000e+20                      49.9773k                  -61.1987m
     290.0000m           1.000e+20                      49.9711k                  -77.4247m
     300.0000m           1.000e+20                      49.9636k                  -97.3395m
     310.0000m           1.000e+20                      49.9543k                 -121.5734m
     320.0000m           1.000e+20                      49.9432k                 -150.7693m
     330.0000m           1.000e+20                      49.9300k                 -185.5391m
     340.0000m           1.000e+20                      49.9143k                 -226.4130m
     350.0000m           1.000e+20                      49.8961k                 -273.7868m
     360.0000m           1.000e+20                      49.8753k                 -327.8760m
     370.0000m           1.000e+20                      49.8517k                 -388.6841m
     380.0000m           1.000e+20                      49.8254k                 -455.9922m
     390.0000m           1.000e+20                      49.7964k                 -529.3728m
     400.0000m           1.000e+20                      49.7650k                 -608.2234m
     410.0000m           1.000e+20                      49.7313k                 -691.8164m
     420.0000m           1.000e+20                      49.6956k                 -779.3557m
     430.0000m           1.000e+20                      49.6580k                 -870.0311m
     440.0000m           1.000e+20                      49.6190k                 -963.0664m
     450.0000m           1.000e+20                      49.5786k                   -1.0578 
     460.0000m           1.000e+20                      49.5372k                   -1.1535 
     470.0000m           1.000e+20                      49.4949k                   -1.2497 
     480.0000m           1.000e+20                      49.4518k                   -1.3461 
     490.0000m           1.000e+20                      49.4082k                   -1.4422 
     500.0000m           1.000e+20                      49.3640k                   -1.5379 
     510.0000m           1.000e+20                      49.3195k                   -1.6330 
     520.0000m           1.000e+20                      49.2746k                   -1.7274 
     530.0000m           1.000e+20                      49.2294k                   -1.8210 
     540.0000m           1.000e+20                      49.1839k                   -1.9138 
     550.0000m           1.000e+20                      49.1382k                   -2.0059 
     560.0000m           1.000e+20                      49.0922k                   -2.0971 
     570.0000m           1.000e+20                      49.0460k                   -2.1876 
     580.0000m           1.000e+20                      48.9994k                   -2.2773 
     590.0000m           1.000e+20                      48.9526k                   -2.3664 
     600.0000m           1.000e+20                      48.9054k                   -2.4547 
     610.0000m           1.000e+20                      48.8579k                   -2.5425 
     620.0000m           1.000e+20                      48.8098k                   -2.6296 
     630.0000m           1.000e+20                      48.7613k                   -2.7161 
     640.0000m           1.000e+20                      48.7122k                   -2.8020 
     650.0000m           1.000e+20                      48.6624k                   -2.8873 
     660.0000m           1.000e+20                      48.6119k                   -2.9721 
     670.0000m           1.000e+20                      48.5603k                   -3.0563 
     680.0000m           1.000e+20                      48.5076k                   -3.1398 
     690.0000m           1.000e+20                      48.4536k                   -3.2228 
     700.0000m           1.000e+20                      48.3978k                   -3.3050 
     710.0000m           1.000e+20                      48.3401k                   -3.3866 
     720.0000m           1.000e+20                      48.2798k                   -3.4674 
     730.0000m           1.000e+20                      48.2163k                   -3.5473 
     740.0000m           1.000e+20                      48.1489k                   -3.6263 
     750.0000m           1.000e+20                      48.0763k                   -3.7041 
     760.0000m           1.000e+20                      47.9970k                   -3.7805 
     770.0000m           1.000e+20                      47.9088k                   -3.8554 
     780.0000m           1.000e+20                      47.8086k                   -3.9282 
     790.0000m           1.000e+20                      47.6917k                   -3.9983 
     800.0000m           1.000e+20                      47.5511k                   -4.0649 
     810.0000m           1.000e+20                      47.3757k                   -4.1266 
     820.0000m           1.000e+20                      47.1471k                   -4.1810 
     830.0000m           1.000e+20                      46.8333k                   -4.2242 
     840.0000m           1.000e+20                      46.3757k                   -4.2491 
     850.0000m           1.000e+20                      45.6602k                   -4.2418 
     860.0000m           1.000e+20                      44.4574k                   -4.1748 
     870.0000m           1.000e+20                      42.3352k                   -3.9962 
     880.0000m           1.000e+20                      38.7399k                   -3.6394 
     890.0000m           1.000e+20                      33.7495k                   -3.1106 
     900.0000m           1.000e+20                      28.6040k                   -2.5529 
     910.0000m           1.000e+20                      24.3693k                   -2.0920 
     920.0000m           1.000e+20                      21.1845k                   -1.7470 
     930.0000m           1.000e+20                      18.8068k                   -1.4914 
     940.0000m           1.000e+20                      16.9911k                   -1.2982 
     950.0000m           1.000e+20                      15.5644k                   -1.1481 
     960.0000m           1.000e+20                      14.4131k                   -1.0283 
     970.0000m           1.000e+20                      13.4624k                 -930.5696m
     980.0000m           1.000e+20                      12.6618k                 -849.2174m
     990.0000m           1.000e+20                      11.9768k                 -780.4100m
       1.0000            1.000e+20                      11.3824k                 -721.4056m
       1.0100            1.000e+20                      10.8607k                 -670.2126m
       1.0200            1.000e+20                      10.3982k                 -625.3469m
       1.0300            1.000e+20                       9.9847k                 -585.6826m
       1.0400            1.000e+20                       9.6122k                 -550.3491m
       1.0500            1.000e+20                       9.2744k                 -518.6626m
       1.0600            1.000e+20                       8.9664k                 -490.0780m
       1.0700            1.000e+20                       8.6840k                 -464.1554m
       1.0800            1.000e+20                       8.4240k                 -440.5355m
       1.0900            1.000e+20                       8.1836k                 -418.9219m
       1.1000            1.000e+20                       7.9605k                 -399.0677m
       1.1100            1.000e+20                       7.7527k                 -380.7656m
       1.1200            1.000e+20                       7.5586k                 -363.8401m
       1.1300            1.000e+20                       7.3769k                 -348.1414m
       1.1400            1.000e+20                       7.2062k                 -333.5412m
       1.1500            1.000e+20                       7.0455k                 -319.9284m
       1.1600            1.000e+20                       6.8939k                 -307.2070m
       1.1700            1.000e+20                       6.7506k                 -295.2927m
       1.1800            1.000e+20                       6.6149k                 -284.1121m
       1.1900            1.000e+20                       6.4862k                 -273.6002m
       1.2000            1.000e+20                       6.3639k                 -263.6995m
       1.2100            1.000e+20                       6.2475k                 -254.3593m
       1.2200            1.000e+20                       6.1366k                 -245.5340m
       1.2300            1.000e+20                       6.0308k                 -237.1831m
       1.2400            1.000e+20                       5.9297k                 -229.2702m
       1.2500            1.000e+20                       5.8329k                 -221.7624m
       1.2600            1.000e+20                       5.7403k                 -214.6303m
       1.2700            1.000e+20                       5.6515k                 -207.8471m
       1.2800            1.000e+20                       5.5663k                 -201.3885m
       1.2900            1.000e+20                       5.4845k                 -195.2325m
       1.3000            1.000e+20                       5.4058k                 -189.3590m
       1.3100            1.000e+20                       5.3301k                 -183.7495m
       1.3200            1.000e+20                       5.2572k                 -178.3874m
       1.3300            1.000e+20                       5.1869k                 -173.2571m
       1.3400            1.000e+20                       5.1192k                 -168.3445m
       1.3500            1.000e+20                       5.0538k                 -163.6367m
       1.3600            1.000e+20                       4.9907k                 -159.1214m
       1.3700            1.000e+20                       4.9297k                 -154.7878m
       1.3800            1.000e+20                       4.8708k                 -150.6254m
       1.3900            1.000e+20                       4.8137k                 -146.6248m
       1.4000            1.000e+20                       4.7585k                 -142.7771m
       1.4100            1.000e+20                       4.7050k                 -139.0742m
       1.4200            1.000e+20                       4.6532k                 -135.5084m
       1.4300            1.000e+20                       4.6030k                 -132.0726m
       1.4400            1.000e+20                       4.5543k                 -128.7601m
       1.4500            1.000e+20                       4.5070k                 -125.5648m
       1.4600            1.000e+20                       4.4611k                 -122.4809m
       1.4700            1.000e+20                       4.4166k                 -119.5029m
       1.4800            1.000e+20                       4.3733k                 -116.6258m
       1.4900            1.000e+20                       4.3312k                 -113.8449m
       1.5000            1.000e+20                       4.2903k                 -111.1556m
       1.5100            1.000e+20                       4.2506k                 -108.5537m
       1.5200            1.000e+20                       4.2119k                 -106.0353m
       1.5300            1.000e+20                       4.1742k                 -103.5967m
       1.5400            1.000e+20                       4.1375k                 -101.2343m
       1.5500            1.000e+20                       4.1018k                  -98.9449m
       1.5600            1.000e+20                       4.0670k                  -96.7254m
       1.5700            1.000e+20                       4.0331k                  -94.5726m
       1.5800            1.000e+20                       4.0001k                  -92.4840m
       1.5900            1.000e+20                       3.9679k                  -90.4568m
       1.6000            1.000e+20                       3.9365k                  -88.4886m
       1.6100            1.000e+20                       3.9058k                  -86.5769m
       1.6200            1.000e+20                       3.8760k                  -84.7196m
       1.6300            1.000e+20                       3.8468k                  -82.9145m
       1.6400            1.000e+20                       3.8183k                  -81.1595m
       1.6500            1.000e+20                       3.7905k                  -79.4528m
       1.6600            1.000e+20                       3.7634k                  -77.7925m
       1.6700            1.000e+20                       3.7368k                  -76.1768m
       1.6800            1.000e+20                       3.7109k                  -74.6043m
       1.6900            1.000e+20                       3.6856k                  -73.0731m
       1.7000            1.000e+20                       3.6609k                  -71.5819m
       1.7100            1.000e+20                       3.6367k                  -70.1293m
       1.7200            1.000e+20                       3.6131k                  -68.7137m
       1.7300            1.000e+20                       3.5899k                  -67.3341m
       1.7400            1.000e+20                       3.5673k                  -65.9890m
       1.7500            1.000e+20                       3.5452k                  -64.6773m
       1.7600            1.000e+20                       3.5236k                  -63.3979m
       1.7700            1.000e+20                       3.5024k                  -62.1497m
       1.7800            1.000e+20                       3.4817k                  -60.9317m
       1.7900            1.000e+20                       3.4614k                  -59.7428m
       1.8000            1.000e+20                       3.4416k                  -58.5820m
  
 ******
 *lab2

 ****** dc transfer curves tnom=  25.000 temp=  25.000 ******
 out_deriv=  -4.0320 
 id=  19.9757u
 **info** dc convergence successful at Newton-Raphson method 
1****** HSPICE -- N-2017.12-SP2 linux64 (May 24 2018) ******                    
 ******  
 *lab2

 ****** operating point information tnom=  25.000 temp=  25.000 ******
 ****** operating point status is all       simulation time is     0.     
    node    =voltage      node    =voltage      node    =voltage

 +0:in      = 800.0000m 0:out     = 801.2173m 0:vdd     =   1.8000 


 maximum nodal capacitance=   2.174E-14         on node     0:in              

    nodal  capacitance table 

    node    =    cap      node    =    cap      node    =    cap

 +0:in      =  21.7351f 0:out     =   2.2607f 0:vdd     =   0.     

 

 **** voltage sources

 subckt                        
 element  0:vin      0:v1      
  volts    800.0000m    1.8000 
  current    0.       -19.9757u
  power      0.        35.9562u

     total voltage source power dissipation=   35.9562u       watts



 **** resistors

 subckt             
 element  0:r0      
  r value   50.0000k
  v drop   998.7827m
  current   19.9757u
  power     19.9513u



 **** mosfets


 subckt             
 element  0:mn      
 model    0:n_18.1  
 region   Saturation
  id        19.9757u
  ibs     -4.797e-21
  ibd     -149.8568a
  vgs      800.0000m
  vds      801.2173m
  vbs        0.     
  vth      357.3235m
  vdsat    360.1238m
  vod      442.6765m
  beta     245.8213u
  gam eff  507.4466m
  gm        85.4970u
  gds        1.0301u
  gmb       15.8362u
  cdtot      2.2607f
  cgtot     21.7351f
  cstot     23.3792f
  cbtot      8.7115f
  cgs       19.7019f
  cgd      572.8393a







 ****     small-signal transfer characteristics

      v(out)/vin                               =   -4.0649 
      input resistance at             vin      =  1.000e+20
      output resistance at v(out)              =   47.5511k




          ***** job concluded
 ******  
 *lab2

