 ****** HSPICE -- N-2017.12-SP2 linux64 (May 24 2018) ******                    
  Copyright (c) 1986 - 2026 by Synopsys, Inc. All Rights Reserved.              
  This software and the associated documentation are proprietary
  to Synopsys, Inc. This software may only be used in accordance
  with the terms and conditions of a written license agreement with
  Synopsys, Inc. All other use, reproduction, or distribution of
  this software is strictly prohibited.
  Input File: CDA.sp                                                            
  Command line options: /home/IC/Synopsys/hspice/N-2017.12-SP2/hspice/linux64/hspice CDA.sp -o CDA.lis
 lic:  
 lic: FLEXlm: SDK_11.6.9.3 
 lic: USER:   IC                   HOSTNAME: IC 
 lic: HOSTID: 000c29935feb         PID:      32625 
 lic: Using FLEXlm license file: 
 lic: 27000@IC 
 lic: Checkout 1 hspice 
 lic: License/Maintenance for hspice will expire on 30-dec-2030/2019.2019 
 lic: 1(in_use)/99(total) FLOATING license(s) on SERVER 27000@IC 
 lic:   
 

  
      
 *****************************************************************
 ******  option summary
 ******
 runlvl  = 6         bypass  = 2.0000    




 ****     small-signal transfer characteristics

        vin        input resistance at vin       output resistance at v(out)      v(out)/vin      

       0.                1.000e+20                      49.9997k                    4.0812u
      10.0000m           1.000e+20                      49.9996k                    5.8952u
      20.0000m           1.000e+20                      49.9995k                    8.5126u
      30.0000m           1.000e+20                      49.9992k                   12.2872u
      40.0000m           1.000e+20                      49.9989k                   17.7269u
      50.0000m           1.000e+20                      49.9984k                   25.5599u
      60.0000m           1.000e+20                      49.9977k                   36.8285u
      70.0000m           1.000e+20                      49.9967k                   53.0210u
      80.0000m           1.000e+20                      49.9953k                   76.2569u
      90.0000m           1.000e+20                      49.9932k                  109.5455u
     100.0000m           1.000e+20                      49.9903k                  157.1430u
     110.0000m           1.000e+20                      49.9861k                  225.0418u
     120.0000m           1.000e+20                      49.9802k                  321.6337u
     130.0000m           1.000e+20                      49.9718k                  458.5953u
     140.0000m           1.000e+20                      49.9599k                  652.0502u
     150.0000m           1.000e+20                      49.9432k                  924.0617u
     160.0000m           1.000e+20                      49.9199k                    1.3045m
     170.0000m           1.000e+20                      49.8876k                    1.8333m
     180.0000m           1.000e+20                      49.8430k                    2.5631m
     190.0000m           1.000e+20                      49.7819k                    3.5620m
     200.0000m           1.000e+20                      49.6993k                    4.9165m
     210.0000m           1.000e+20                      49.5884k                    6.7342m
     220.0000m           1.000e+20                      49.4414k                    9.1452m
     230.0000m           1.000e+20                      49.2491k                   12.3025m
     240.0000m           1.000e+20                      49.0008k                   16.3810m
     250.0000m           1.000e+20                      48.6850k                   21.5730m
     260.0000m           1.000e+20                      48.2891k                   28.0825m
     270.0000m           1.000e+20                      47.8009k                   36.1159m
     280.0000m           1.000e+20                      47.2083k                   45.8704m
     290.0000m           1.000e+20                      46.5010k                   57.5188m
     300.0000m           1.000e+20                      45.6711k                   71.1927m
     310.0000m           1.000e+20                      44.7144k                   86.9620m
     320.0000m           1.000e+20                      43.6319k                  104.8155m
     330.0000m           1.000e+20                      42.4301k                  124.6457m
     340.0000m           1.000e+20                      41.1222k                  146.2420m
     350.0000m           1.000e+20                      39.7268k                  169.2976m
     360.0000m           1.000e+20                      38.2675k                  193.4303m
     370.0000m           1.000e+20                      36.7702k                  218.2151m
     380.0000m           1.000e+20                      35.2611k                  243.2212m
     390.0000m           1.000e+20                      33.7647k                  268.0468m
     400.0000m           1.000e+20                      32.3021k                  292.3451m
     410.0000m           1.000e+20                      30.8901k                  315.8395m
     420.0000m           1.000e+20                      29.5408k                  338.3278m
     430.0000m           1.000e+20                      28.2621k                  359.6774m
     440.0000m           1.000e+20                      27.0584k                  379.8162m
     450.0000m           1.000e+20                      25.9309k                  398.7207m
     460.0000m           1.000e+20                      24.8786k                  416.4042m
     470.0000m           1.000e+20                      23.8991k                  432.9055m
     480.0000m           1.000e+20                      22.9889k                  448.2807m
     490.0000m           1.000e+20                      22.1437k                  462.5963m
     500.0000m           1.000e+20                      21.3592k                  475.9234m
     510.0000m           1.000e+20                      20.6309k                  488.3343m
     520.0000m           1.000e+20                      19.9543k                  499.9000m
     530.0000m           1.000e+20                      19.3254k                  510.6886m
     540.0000m           1.000e+20                      18.7400k                  520.7642m
     550.0000m           1.000e+20                      18.1945k                  530.1864m
     560.0000m           1.000e+20                      17.6856k                  539.0105m
     570.0000m           1.000e+20                      17.2101k                  547.2868m
     580.0000m           1.000e+20                      16.7652k                  555.0615m
     590.0000m           1.000e+20                      16.3483k                  562.3765m
     600.0000m           1.000e+20                      15.9571k                  569.2699m
     610.0000m           1.000e+20                      15.5893k                  575.7763m
     620.0000m           1.000e+20                      15.2432k                  581.9269m
     630.0000m           1.000e+20                      14.9170k                  587.7500m
     640.0000m           1.000e+20                      14.6090k                  593.2715m
     650.0000m           1.000e+20                      14.3179k                  598.5145m
     660.0000m           1.000e+20                      14.0424k                  603.5002m
     670.0000m           1.000e+20                      13.7812k                  608.2477m
     680.0000m           1.000e+20                      13.5334k                  612.7745m
     690.0000m           1.000e+20                      13.2979k                  617.0964m
     700.0000m           1.000e+20                      13.0739k                  621.2278m
     710.0000m           1.000e+20                      12.8606k                  625.1820m
     720.0000m           1.000e+20                      12.6571k                  628.9709m
     730.0000m           1.000e+20                      12.4629k                  632.6056m
     740.0000m           1.000e+20                      12.2774k                  636.0961m
     750.0000m           1.000e+20                      12.0999k                  639.4516m
     760.0000m           1.000e+20                      11.9299k                  642.6807m
     770.0000m           1.000e+20                      11.7670k                  645.7911m
     780.0000m           1.000e+20                      11.6108k                  648.7899m
     790.0000m           1.000e+20                      11.4608k                  651.6838m
     800.0000m           1.000e+20                      11.3166k                  654.4790m
     810.0000m           1.000e+20                      11.1779k                  657.1809m
     820.0000m           1.000e+20                      11.0445k                  659.7949m
     830.0000m           1.000e+20                      10.9159k                  662.3258m
     840.0000m           1.000e+20                      10.7920k                  664.7780m
     850.0000m           1.000e+20                      10.6724k                  667.1557m
     860.0000m           1.000e+20                      10.5570k                  669.4629m
     870.0000m           1.000e+20                      10.4455k                  671.7030m
     880.0000m           1.000e+20                      10.3377k                  673.8794m
     890.0000m           1.000e+20                      10.2335k                  675.9954m
     900.0000m           1.000e+20                      10.1325k                  678.0537m
     910.0000m           1.000e+20                      10.0348k                  680.0572m
     920.0000m           1.000e+20                       9.9401k                  682.0083m
     930.0000m           1.000e+20                       9.8482k                  683.9095m
     940.0000m           1.000e+20                       9.7591k                  685.7631m
     950.0000m           1.000e+20                       9.6727k                  687.5711m
     960.0000m           1.000e+20                       9.5887k                  689.3355m
     970.0000m           1.000e+20                       9.5071k                  691.0581m
     980.0000m           1.000e+20                       9.4278k                  692.7408m
     990.0000m           1.000e+20                       9.3506k                  694.3852m
       1.0000            1.000e+20                       9.2755k                  695.9928m
       1.0100            1.000e+20                       9.2025k                  697.5651m
       1.0200            1.000e+20                       9.1313k                  699.1035m
       1.0300            1.000e+20                       9.0620k                  700.6092m
       1.0400            1.000e+20                       8.9944k                  702.0836m
       1.0500            1.000e+20                       8.9285k                  703.5278m
       1.0600            1.000e+20                       8.8643k                  704.9429m
       1.0700            1.000e+20                       8.8016k                  706.3299m
       1.0800            1.000e+20                       8.7404k                  707.6899m
       1.0900            1.000e+20                       8.6806k                  709.0238m
       1.1000            1.000e+20                       8.6222k                  710.3325m
       1.1100            1.000e+20                       8.5652k                  711.6168m
       1.1200            1.000e+20                       8.5094k                  712.8776m
       1.1300            1.000e+20                       8.4549k                  714.1156m
       1.1400            1.000e+20                       8.4016k                  715.3316m
       1.1500            1.000e+20                       8.3494k                  716.5262m
       1.1600            1.000e+20                       8.2984k                  717.7001m
       1.1700            1.000e+20                       8.2484k                  718.8541m
       1.1800            1.000e+20                       8.1994k                  719.9885m
       1.1900            1.000e+20                       8.1515k                  721.1042m
       1.2000            1.000e+20                       8.1045k                  722.2015m
       1.2100            1.000e+20                       8.0585k                  723.2810m
       1.2200            1.000e+20                       8.0134k                  724.3433m
       1.2300            1.000e+20                       7.9692k                  725.3888m
       1.2400            1.000e+20                       7.9258k                  726.4179m
       1.2500            1.000e+20                       7.8833k                  727.4312m
       1.2600            1.000e+20                       7.8415k                  728.4290m
       1.2700            1.000e+20                       7.8005k                  729.4117m
       1.2800            1.000e+20                       7.7603k                  730.3798m
       1.2900            1.000e+20                       7.7209k                  731.3335m
       1.3000            1.000e+20                       7.6821k                  732.2734m
       1.3100            1.000e+20                       7.6440k                  733.1996m
       1.3200            1.000e+20                       7.6066k                  734.1125m
       1.3300            1.000e+20                       7.5698k                  735.0124m
       1.3400            1.000e+20                       7.5337k                  735.8997m
       1.3500            1.000e+20                       7.4982k                  736.7746m
       1.3600            1.000e+20                       7.4633k                  737.6375m
       1.3700            1.000e+20                       7.4290k                  738.4884m
       1.3800            1.000e+20                       7.3952k                  739.3278m
       1.3900            1.000e+20                       7.3620k                  740.1559m
       1.4000            1.000e+20                       7.3293k                  740.9729m
       1.4100            1.000e+20                       7.2972k                  741.7790m
       1.4200            1.000e+20                       7.2656k                  742.5744m
       1.4300            1.000e+20                       7.2344k                  743.3594m
       1.4400            1.000e+20                       7.2038k                  744.1342m
       1.4500            1.000e+20                       7.1736k                  744.8989m
       1.4600            1.000e+20                       7.1439k                  745.6537m
       1.4700            1.000e+20                       7.1146k                  746.3989m
       1.4800            1.000e+20                       7.0858k                  747.1345m
       1.4900            1.000e+20                       7.0574k                  747.8607m
       1.5000            1.000e+20                       7.0295k                  748.5778m
       1.5100            1.000e+20                       7.0019k                  749.2858m
       1.5200            1.000e+20                       6.9747k                  749.9848m
       1.5300            1.000e+20                       6.9480k                  750.6751m
       1.5400            1.000e+20                       6.9216k                  751.3567m
       1.5500            1.000e+20                       6.8956k                  752.0298m
       1.5600            1.000e+20                       6.8699k                  752.6945m
       1.5700            1.000e+20                       6.8446k                  753.3509m
       1.5800            1.000e+20                       6.8197k                  753.9991m
       1.5900            1.000e+20                       6.7951k                  754.6392m
       1.6000            1.000e+20                       6.7708k                  755.2713m
       1.6100            1.000e+20                       6.7469k                  755.8954m
       1.6200            1.000e+20                       6.7233k                  756.5118m
       1.6300            1.000e+20                       6.7000k                  757.1204m
       1.6400            1.000e+20                       6.6770k                  757.7213m
       1.6500            1.000e+20                       6.6543k                  758.3146m
       1.6600            1.000e+20                       6.6319k                  758.9003m
       1.6700            1.000e+20                       6.6098k                  759.4786m
       1.6800            1.000e+20                       6.5880k                  760.0494m
       1.6900            1.000e+20                       6.5665k                  760.6128m
       1.7000            1.000e+20                       6.5452k                  761.1688m
       1.7100            1.000e+20                       6.5242k                  761.7175m
       1.7200            1.000e+20                       6.5035k                  762.2589m
       1.7300            1.000e+20                       6.4830k                  762.7930m
       1.7400            1.000e+20                       6.4628k                  763.3198m
       1.7500            1.000e+20                       6.4429k                  763.8393m
       1.7600            1.000e+20                       6.4232k                  764.3516m
       1.7700            1.000e+20                       6.4037k                  764.8566m
       1.7800            1.000e+20                       6.3845k                  765.3543m
       1.7900            1.000e+20                       6.3655k                  765.8446m
       1.8000            1.000e+20                       6.3467k                  766.3277m
  
 **info** dc convergence successful at Newton-Raphson method 
1****** HSPICE -- N-2017.12-SP2 linux64 (May 24 2018) ******                    
 ******  
 *lab2

 ****** operating point information tnom=  25.000 temp=  25.000 ******
 ****** operating point status is all       simulation time is     0.     
    node    =voltage      node    =voltage      node    =voltage

 +0:in      =   1.6000  0:out     = 809.4953m 0:vdd     =   1.8000 


 maximum nodal capacitance=   9.438E-15         on node     0:out             

    nodal  capacitance table 

    node    =    cap      node    =    cap      node    =    cap

 +0:in      =   8.8000f 0:out     =   9.4379f 0:vdd     =   1.7524f

 

 **** voltage sources

 subckt                        
 element  0:vin      0:v1      
  volts      1.6000     1.8000 
  current    0.       -16.1899u
  power      0.        29.1418u

     total voltage source power dissipation=   29.1418u       watts



 **** resistors

 subckt             
 element  0:rs      
  r value   50.0000k
  v drop   809.4953m
  current   16.1899u
  power     13.1057u



 **** mosfets


 subckt             
 element  0:mn      
 model    0:n_18.1  
 region   Saturation
  id        16.1899u
  ibs     -141.1386a
  ibd     -313.8238a
  vgs      790.5047m
  vds      990.5047m
  vbs     -809.4953m
  vth      535.4308m
  vdsat    242.2035m
  vod      255.0740m
  beta     498.4753u
  gam eff  526.4879m
  gm       111.5687u
  gds        1.7925u
  gmb       14.3551u
  cdtot      1.7524f
  cgtot      8.8000f
  cstot      9.4379f
  cbtot      4.1115f
  cgs        7.6891f
  cgd      488.9252a







 ****     small-signal transfer characteristics

      v(out)/vin                               =  755.2713m
      input resistance at             vin      =  1.000e+20
      output resistance at v(out)              =    6.7708k




          ***** job concluded
 ******  
 *lab2

 ****** job statistics summary tnom=  25.000 temp=  25.000 ******
  
  
 ******  Machine Information  ******
 CPU:
