 ****** HSPICE -- N-2017.12-SP2 linux64 (May 24 2018) ******                    
  Copyright (c) 1986 - 2026 by Synopsys, Inc. All Rights Reserved.              
  This software and the associated documentation are proprietary
  to Synopsys, Inc. This software may only be used in accordance
  with the terms and conditions of a written license agreement with
  Synopsys, Inc. All other use, reproduction, or distribution of
  this software is strictly prohibited.
  Input File: CASA.sp                                                           
  Command line options: /home/IC/Synopsys/hspice/N-2017.12-SP2/hspice/linux64/hspice CASA.sp -o CASA.lis
 lic:  
 lic: FLEXlm: SDK_11.6.9.3 
 lic: USER:   IC                   HOSTNAME: IC 
 lic: HOSTID: 000c29935feb         PID:      26328 
 lic: Using FLEXlm license file: 
 lic: 27000@IC 
 lic: Checkout 1 hspice 
 lic: License/Maintenance for hspice will expire on 30-dec-2030/2019.2019 
 lic: 2(in_use)/99(total) FLOATING license(s) on SERVER 27000@IC 
 lic:   
 

  **warning** (CASA.sp:25) Could not find branch element mn ;branch output ignored
  
      
 *****************************************************************
 ******  option summary
 ******
 runlvl  = 6         bypass  = 2.0000    
 **info** dc convergence successful at Newton-Raphson method 
1****** HSPICE -- N-2017.12-SP2 linux64 (May 24 2018) ******                    
 ******  
 *lab3

 ****** operating point information tnom=  25.000 temp=  25.000 ******
 ****** operating point status is all       simulation time is     0.     
    node    =voltage      node    =voltage      node    =voltage

 +0:in      = 382.0000m 0:out     = 787.9618m 0:vb1     =   1.2000 
 +0:vb2     =   1.0200  0:vdd     =   1.8000  0:x       = 499.7634m


 maximum nodal capacitance=   2.217E-13         on node     0:x               

    nodal  capacitance table 

    node    =    cap      node    =    cap      node    =    cap

 +0:in      = 119.2220f 0:out     =  20.3116f 0:vb1     = 133.9863f
 +0:vb2     = 190.9613f 0:vdd     = 213.0091f 0:x       = 221.7059f

 

 **** voltage sources

 subckt                                              
 element  0:vin      0:v1       0:v2       0:v3      
  volts    382.0000m    1.8000     1.2000     1.0200 
  current    0.       -13.1628u    0.         0.     
  power      0.        23.6930u    0.         0.     

     total voltage source power dissipation=   23.6930u       watts



 **** current sources

 subckt             
 element  0:i0      
  volts    499.7634m
  current   10.0000u
  power     -4.9976u


     total current source power dissipation=  -4.9976u       watts

 **** resistors

 subckt             
 element  0:rd      
  r value  100.0000k
  v drop     1.0120 
  current   10.1204u
  power     10.2422u



 **** mosfets


 subckt                                   
 element  0:mn0      0:mp0      0:mn1     
 model    0:n_18.1   0:p_18.1   0:n_18.1  
 region   Saturation Saturation Saturation
  id         3.1628u   -3.0424u   10.1204u
  ibs     -5.091e-22  3.031e-22 -565.0341a
  ibd     -409.9614a  660.1870a -890.8681a
  vgs      382.0000m -600.0000m  520.2366m
  vds      499.7634m   -1.3002   288.1984m
  vbs        0.         0.      -499.7634m
  vth      349.6591m -483.0875m  444.3695m
  vdsat     73.9031m -129.6110m  102.9538m
  vod       32.3409m -116.9125m   75.8671m
  beta       1.6066m  378.7153u    2.3060m
  gam eff  507.4459m  557.0847m  519.8953m
  gm        61.4450u   38.2145u  162.2179u
  gds      499.5843n   55.4706n    1.9960u
  gmb       12.7147u   11.7158u   26.2209u
  cdtot     14.6701f   11.1465f   20.3116f
  cgtot    119.2220f  133.9863f  190.9613f
  cstot    121.0341f  151.9433f  195.8893f
  cbtot     58.6741f   61.0658f   69.5838f
  cgs       98.4435f  119.2622f  169.9909f
  cgd        3.7539f    3.8056f    5.1713f







 ****     small-signal transfer characteristics

      v(out)/vin                               =   -6.1230 
      input resistance at             vin      =  1.000e+20
      output resistance at v(out)              =   99.9420k



 ***************************************************
   ******   pole/zero analysis  
  
  
    input =  0:vin          output = v(out)
  
       poles (rad/sec)                 poles ( hertz)
 real            imag            real            imag            
 -444.837x       0.              -70.7981x       0.              
 -953.658x       0.              -151.779x       0.              
  
       zeros (rad/sec)                 zeros ( hertz)
 real            imag            real            imag            
 14.1722g        0.              2.25557g        0.              
 160.209g        0.              25.4980g        0.              
  
  ***** constant factor = 1.14402m
 ******
 *lab3

 ****** ac analysis tnom=  25.000 temp=  25.000 ******
 dcgain_in_db=  15.7393     at=   1.0000 
             from=   1.0000     to= 100.0000g
 bw=  60.1880x
 ugb= 230.5337x

          ***** job concluded
 ******  
 *lab3

 ****** job statistics summary tnom=  25.000 temp=  25.000 ******
  
  
 ******  Machine Information  ******
 CPU:
 model name	: 13th Gen Intel(R) Core(TM) i5-13600KF
 cpu MHz	: 3494.401
  
 OS:
 Linux version 3.10.0-1062.el7.x86_64 (mockbuild@kbuilder.bsys.centos.org) (gcc version 4.8.5 20150623 (Red Hat 4.8.5-36) (GCC) ) #1 SMP Wed Aug 7 18:08:02 UTC 2019


  ******  HSPICE Threads Information  ******

  Command Line Threads Count :     1
  Available CPU Count        :     4
  Actual Threads Count       :     1


  ******  Circuit Statistics  ******
  # nodes       =      13 # elements   =       9
  # resistors   =       1 # capacitors =       0 # inductors   =       0
  # mutual_inds =       0 # vccs       =       0 # vcvs        =       0
  # cccs        =       0 # ccvs       =       0 # volt_srcs   =       4
  # curr_srcs   =       1 # diodes     =       0 # bjts        =       0
  # jfets       =       0 # mosfets    =       3 # U elements  =       0
  # T elements  =       0 # W elements =       0 # B elements  =       0
  # S elements  =       0 # P elements =       0 # va device   =       0
  # vector_srcs =       0 # N elements =       0


  ******  Runtime Statistics (seconds)  ******

  analysis           time    # points   tot. iter  conv.iter
  op point           0.00           1           6
  ac analysis        0.00         111         111
  readin             0.00
  errchk             0.01
  setup              0.00
  output             0.00


           peak memory used        316.06 megabytes
           total cpu time            0.01 seconds
           total elapsed time        0.13 seconds
           job started at     14:25:32 02/10/2026
           job ended   at     14:25:32 02/10/2026


 lic: Release hspice token(s) 
 lic: total license checkout elapse time:        0.12(s)