 ****** HSPICE -- N-2017.12-SP2 linux64 (May 24 2018) ******                    
  Copyright (c) 1986 - 2026 by Synopsys, Inc. All Rights Reserved.              
  This software and the associated documentation are proprietary
  to Synopsys, Inc. This software may only be used in accordance
  with the terms and conditions of a written license agreement with
  Synopsys, Inc. All other use, reproduction, or distribution of
  this software is strictly prohibited.
  Input File: IA_ideal.sp                                                       
  Command line options: /home/IC/Synopsys/hspice/N-2017.12-SP2/hspice/linux64/hspice IA_ideal.sp -o IA_ideal.lis
 lic:  
 lic: FLEXlm: SDK_11.6.9.3 
 lic: USER:   IC                   HOSTNAME: IC 
 lic: HOSTID: 000c29935feb         PID:      19198 
 lic: Using FLEXlm license file: 
 lic: 27000@IC 
 lic: Checkout 1 hspice 
 lic: License/Maintenance for hspice will expire on 30-dec-2030/2019.2019 
 lic: 1(in_use)/99(total) FLOATING license(s) on SERVER 27000@IC 
 lic:   
  
      
 *****************************************************************
 ******  option summary
 ******
 runlvl  = 6         bypass  = 2.0000    




 ****     small-signal transfer characteristics

         x         input resistance at vin       output resistance at v(out)      v(out)/vin      

     500.0000              1.0200k                       0.                        -9.7847 
     501.0000              1.0199k                       0.                        -9.7852 
     502.0000              1.0199k                       0.                        -9.7856 
     503.0000              1.0198k                       0.                        -9.7860 
     504.0000              1.0198k                       0.                        -9.7864 
     505.0000              1.0198k                       0.                        -9.7868 
     506.0000              1.0197k                       0.                        -9.7872 
     507.0000              1.0197k                       0.                        -9.7876 
     508.0000              1.0196k                       0.                        -9.7881 
     509.0000              1.0196k                       0.                        -9.7885 
     510.0000              1.0196k                       0.                        -9.7889 
     511.0000              1.0195k                       0.                        -9.7893 
     512.0000              1.0195k                       0.                        -9.7897 
     513.0000              1.0195k                       0.                        -9.7901 
     514.0000              1.0194k                       0.                        -9.7905 
     515.0000              1.0194k                       0.                        -9.7909 
     516.0000              1.0193k                       0.                        -9.7913 
     517.0000              1.0193k                       0.                        -9.7917 
     518.0000              1.0193k                       0.                        -9.7921 
     519.0000              1.0192k                       0.                        -9.7925 
     520.0000              1.0192k                       0.                        -9.7928 
     521.0000              1.0192k                       0.                        -9.7932 
     522.0000              1.0191k                       0.                        -9.7936 
     523.0000              1.0191k                       0.                        -9.7940 
     524.0000              1.0190k                       0.                        -9.7944 
     525.0000              1.0190k                       0.                        -9.7948 
     526.0000              1.0190k                       0.                        -9.7952 
     527.0000              1.0189k                       0.                        -9.7955 
     528.0000              1.0189k                       0.                        -9.7959 
     529.0000              1.0189k                       0.                        -9.7963 
     530.0000              1.0188k                       0.                        -9.7967 
     531.0000              1.0188k                       0.                        -9.7970 
     532.0000              1.0188k                       0.                        -9.7974 
     533.0000              1.0187k                       0.                        -9.7978 
     534.0000              1.0187k                       0.                        -9.7982 
     535.0000              1.0187k                       0.                        -9.7985 
     536.0000              1.0186k                       0.                        -9.7989 
     537.0000              1.0186k                       0.                        -9.7993 
     538.0000              1.0186k                       0.                        -9.7996 
     539.0000              1.0185k                       0.                        -9.8000 
     540.0000              1.0185k                       0.                        -9.8004 
     541.0000              1.0185k                       0.                        -9.8007 
     542.0000              1.0184k                       0.                        -9.8011 
     543.0000              1.0184k                       0.                        -9.8014 
     544.0000              1.0183k                       0.                        -9.8018 
     545.0000              1.0183k                       0.                        -9.8022 
     546.0000              1.0183k                       0.                        -9.8025 
     547.0000              1.0182k                       0.                        -9.8029 
     548.0000              1.0182k                       0.                        -9.8032 
     549.0000              1.0182k                       0.                        -9.8036 
     550.0000              1.0181k                       0.                        -9.8039 
  
 **info** dc convergence successful at Newton-Raphson method 
1****** HSPICE -- N-2017.12-SP2 linux64 (May 24 2018) ******                    
 ******  
 *lab4

 ****** operating point information tnom=  25.000 temp=  25.000 ******
 ****** operating point status is all       simulation time is     0.     
    node    =voltage      node    =voltage      node    =voltage

 +0:in      =   0.      0:in1     =   0.      0:out     =   0.     


 maximum nodal capacitance=    0.00             on node     0:0               

    nodal  capacitance table 

    node    =    cap      node    =    cap      node    =    cap

 +0:in      =   0.      0:in1     =   0.      0:out     =   0.     

 

 **** voltage sources

 subckt             
 element  0:vin     
  volts      0.     
  current    0.     
  power      0.     

     total voltage source power dissipation=    0.            watts



 **** resistors

 subckt                        
 element  0:r1       0:r2      
  r value    1.0000k   10.0000k
  v drop     0.         0.     
  current    0.         0.     
  power      0.         0.     


 **** voltage-controlled voltage sources


 subckt             
 element  0:eopamp  
  volts      0.     
  current    0.     







 ****     small-signal transfer characteristics

      v(out)/vin                               =    0.     
      input resistance at             vin      =   11.0000k
      output resistance at v(out)              =    0.     




          ***** job concluded
 ******  
 *lab4

 ****** job statistics summary tnom=  25.000 temp=  25.000 ******
  
  
 ******  Machine Information  ******
 CPU:
 model name	: 13th Gen Intel(R) Core(TM) i5-13600KF
 cpu MHz	: 3494.401
  
 OS:
 Linux version 3.10.0-1062.el7.x86_64 (mockbuild@kbuilder.bsys.centos.org) (gcc version 4.8.5 20150623 (Red Hat 4.8.5-36) (GCC) ) #1 SMP Wed Aug 7 18:08:02 UTC 2019


  ******  HSPICE Threads Information  ******

  Command Line Threads Count :     1
  Available CPU Count        :     4
  Actual Threads Count       :     1


  ******  Circuit Statistics  ******
  # nodes       =       4 # elements   =       4
  # resistors   =       2 # capacitors =       0 # inductors   =       0
  # mutual_inds =       0 # vccs       =       0 # vcvs        =       1
  # cccs        =       0 # ccvs       =       0 # volt_srcs   =       1
  # curr_srcs   =       0 # diodes     =       0 # bjts        =       0
  # jfets       =       0 # mosfets    =       0 # U elements  =       0
  # T elements  =       0 # W elements =       0 # B elements  =       0
  # S elements  =       0 # P elements =       0 # va device   =       0
  # vector_srcs =       0 # N elements =       0


  ******  Runtime Statistics (seconds)  ******

  analysis           time    # points   tot. iter  conv.iter
  op point           0.00           1           3
  dc sweep           0.00          51         103
  readin             0.00
  errchk             0.00
  setup              0.00
  output             0.00


           peak memory used        316.06 megabytes
           total cpu time            0.00 seconds
           total elapsed time        0.15 seconds
           job started at     21:39:10 02/13/2026
           job ended   at     21:39:10 02/13/2026


 lic: Release hspice token(s) 
 lic: total license checkout elapse time:        0.13(s)
