 ****** HSPICE -- N-2017.12-SP2 linux64 (May 24 2018) ******                    
  Copyright (c) 1986 - 2026 by Synopsys, Inc. All Rights Reserved.              
  This software and the associated documentation are proprietary
  to Synopsys, Inc. This software may only be used in accordance
  with the terms and conditions of a written license agreement with
  Synopsys, Inc. All other use, reproduction, or distribution of
  this software is strictly prohibited.
  Input File: VAI.sp                                                            
  Command line options: /home/IC/Synopsys/hspice/N-2017.12-SP2/hspice/linux64/hspice VAI.sp -o VAI.lis
 lic:  
 lic: FLEXlm: SDK_11.6.9.3 
 lic: USER:   IC                   HOSTNAME: IC 
 lic: HOSTID: 000c29935feb         PID:      18907 
 lic: Using FLEXlm license file: 
 lic: 27000@IC 
 lic: Checkout 1 hspice 
 lic: License/Maintenance for hspice will expire on 30-dec-2030/2019.2019 
 lic: 1(in_use)/99(total) FLOATING license(s) on SERVER 27000@IC 
 lic:   
  **info** (VAI.sp:17) DC voltage reset to initial transient source value in source 0:vx. new dc=0.0000D+00
  
      
 *****************************************************************
 ******  option summary
 ******
 runlvl  = 6         bypass  = 2.0000    
 **info** dc convergence successful at Newton-Raphson method 
1****** HSPICE -- N-2017.12-SP2 linux64 (May 24 2018) ******                    
 ******  
 *lab4

 ****** operating point information tnom=  25.000 temp=  25.000 ******
 ****** operating point status is all       simulation time is     0.     
    node    =voltage      node    =voltage      node    =voltage

 +0:out     =   0.      0:v1      =   0.      0:v2      =   0.     
 +0:v3      =   0.      0:vo1     =   0.      0:vo2     =   0.     
 +0:x       =   0.     


 maximum nodal capacitance=   1.000E-03         on node     0:vo2             

    nodal  capacitance table 

    node    =    cap      node    =    cap      node    =    cap

 +0:out     =   1.0000m 0:v1      =   0.      0:v2      =   1.0000m
 +0:v3      =   1.0000m 0:vo1     =   0.      0:vo2     =   1.0000m
 +0:x       =   0.     

 

 **** voltage sources

 subckt             
 element  0:vx      
  volts      0.     
  current    0.     
  power      0.     

     total voltage source power dissipation=    0.            watts



 **** resistors

 subckt                                                         
 element  0:r1       0:r2       0:r3       0:r4       0:r5      
  r value    4.0000k    2.0000k   12.0000k   50.0000   100.0000 
  v drop     0.         0.         0.         0.         0.     
  current    0.         0.         0.         0.         0.     
  power      0.         0.         0.         0.         0.     


 **** voltage-controlled voltage sources


 subckt                                   
 element  0:eadd     0:eint     0:eint2   
  volts      0.         0.         0.     
  current    0.         0.         0.     




          ***** job concluded
 ******  
 *lab4

 ****** job statistics summary tnom=  25.000 temp=  25.000 ******
  
  
 ******  Machine Information  ******
 CPU:
 model name	: 13th Gen Intel(R) Core(TM) i5-13600KF
 cpu MHz	: 3494.401
  
 OS:
 Linux version 3.10.0-1062.el7.x86_64 (mockbuild@kbuilder.bsys.centos.org) (gcc version 4.8.5 20150623 (Red Hat 4.8.5-36) (GCC) ) #1 SMP Wed Aug 7 18:08:02 UTC 2019


  ******  HSPICE Threads Information  ******

  Command Line Threads Count :     1
  Available CPU Count        :     4
  Actual Threads Count       :     1


  ******  Circuit Statistics  ******
  # nodes       =       8 # elements   =      11
  # resistors   =       5 # capacitors =       2 # inductors   =       0
  # mutual_inds =       0 # vccs       =       0 # vcvs        =       3
  # cccs        =       0 # ccvs       =       0 # volt_srcs   =       1
  # curr_srcs   =       0 # diodes     =       0 # bjts        =       0
  # jfets       =       0 # mosfets    =       0 # U elements  =       0
  # T elements  =       0 # W elements =       0 # B elements  =       0
  # S elements  =       0 # P elements =       0 # va device   =       0
  # vector_srcs =       0 # N elements =       0


  ******  Runtime Statistics (seconds)  ******

  analysis           time    # points   tot. iter  conv.iter
  op point           0.00           1           3
  transient          0.02       20001        9016        4508 rev=         2
  readin             0.00
  errchk             0.00
  setup              0.00
  output             0.00


           peak memory used        316.06 megabytes
           total cpu time            0.02 seconds
           total elapsed time        0.22 seconds
           job started at     12:22:44 02/11/2026
           job ended   at     12:22:44 02/11/2026


 lic: Release hspice token(s) 
 lic: total license checkout elapse time:        0.20(s)
